(1730000000.000000) can1 0A0#B004525C00000000
(1730000000.000000) can1 0C0#0000200100000000
(1730000000.000000) can1 120#000084037D000000
(1730000000.000000) can1 200#7C1E950000000000
(1730000000.000000) can1 220#A230005E05501A00
(1730000000.050000) can1 0A0#B004525C00000000
(1730000000.050000) can1 0C0#0000200100000000
(1730000000.050000) can1 120#000084037D000000
(1730000000.050000) can1 200#7C1E950000000000
(1730000000.050000) can1 220#A230005E05501A00
(1730000000.100000) can1 0A0#B004525C00000000
(1730000000.100000) can1 0C0#0000200100000000
(1730000000.100000) can1 120#000084037D000000
(1730000000.100000) can1 200#7C1E950000000000
(1730000000.100000) can1 220#A230005E05501A00
(1730000000.150000) can1 0A0#B004525C00000000
(1730000000.150000) can1 0C0#0000200100000000
(1730000000.150000) can1 120#000084037D000000
(1730000000.150000) can1 200#7C1E950000000000
(1730000000.150000) can1 220#A230005E05501A00
(1730000000.200000) can1 0A0#B004525C00000000
(1730000000.200000) can1 0C0#0000200100000000
(1730000000.200000) can1 120#000084037D000000
(1730000000.200000) can1 200#7C1E950000000000
(1730000000.200000) can1 220#A230005E05501A00
(1730000000.250000) can1 0A0#B004525C00000000
(1730000000.250000) can1 0C0#0000200100000000
(1730000000.250000) can1 120#000084037D000000
(1730000000.250000) can1 200#7C1E950000000000
(1730000000.250000) can1 220#A230005E05501A00
(1730000000.300000) can1 0A0#B004525D00000000
(1730000000.300000) can1 0C0#0000200100000000
(1730000000.300000) can1 120#000084037D000000
(1730000000.300000) can1 200#7C1E950000000000
(1730000000.300000) can1 220#A230005E05501A00
(1730000000.350000) can1 0A0#B004535D00000000
(1730000000.350000) can1 0C0#0000200100000000
(1730000000.350000) can1 120#000084037D000000
(1730000000.350000) can1 200#7C1E950000000000
(1730000000.350000) can1 220#A230005E05501A00
(1730000000.400000) can1 0A0#B004535D00000000
(1730000000.400000) can1 0C0#0000200100000000
(1730000000.400000) can1 120#000084037D000000
(1730000000.400000) can1 200#7C1E950000000000
(1730000000.400000) can1 220#A230005E05501A00
(1730000000.450000) can1 0A0#B004535D00000000
(1730000000.450000) can1 0C0#0000200100000000
(1730000000.450000) can1 120#000084037D000000
(1730000000.450000) can1 200#7C1E950000000000
(1730000000.450000) can1 220#A230005E05501A00
(1730000000.500000) can1 0A0#B004535D00000000
(1730000000.500000) can1 0C0#0000200100000000
(1730000000.500000) can1 120#000084037D000000
(1730000000.500000) can1 200#7C1E950000000000
(1730000000.500000) can1 220#A230005E05501A00
(1730000000.550000) can1 0A0#B004535D00000000
(1730000000.550000) can1 0C0#0000200100000000
(1730000000.550000) can1 120#000084037D000000
(1730000000.550000) can1 200#7C1E950000000000
(1730000000.550000) can1 220#A230005E05501A00
(1730000000.600000) can1 0A0#B004535E00000000
(1730000000.600000) can1 0C0#0000200100000000
(1730000000.600000) can1 120#000084037D000000
(1730000000.600000) can1 200#7C1E950000000000
(1730000000.600000) can1 220#A230005E05501A00
(1730000000.650000) can1 0A0#B004545E00000000
(1730000000.650000) can1 0C0#0000200100000000
(1730000000.650000) can1 120#000084037D000000
(1730000000.650000) can1 200#7C1E950000000000
(1730000000.650000) can1 220#A230005E05501A00
(1730000000.700000) can1 0A0#B004545E00000000
(1730000000.700000) can1 0C0#0000200100000000
(1730000000.700000) can1 120#000084037D000000
(1730000000.700000) can1 200#7C1E950000000000
(1730000000.700000) can1 220#A230005E05501A00
(1730000000.750000) can1 0A0#B004545E00000000
(1730000000.750000) can1 0C0#0000200100000000
(1730000000.750000) can1 120#000084037D000000
(1730000000.750000) can1 200#7C1E950000000000
(1730000000.750000) can1 220#A230005E05501A00
(1730000000.800000) can1 0A0#B004545E00000000
(1730000000.800000) can1 0C0#0000200100000000
(1730000000.800000) can1 120#000084037D000000
(1730000000.800000) can1 200#7C1E950000000000
(1730000000.800000) can1 220#A230005E05501A00
(1730000000.850000) can1 0A0#B004545F00000000
(1730000000.850000) can1 0C0#0000200100000000
(1730000000.850000) can1 120#000084037D000000
(1730000000.850000) can1 200#7C1E950000000000
(1730000000.850000) can1 220#A230005E05501A00
(1730000000.900000) can1 0A0#B004545F00000000
(1730000000.900000) can1 0C0#0000200100000000
(1730000000.900000) can1 120#000084037D000000
(1730000000.900000) can1 200#7C1E950000000000
(1730000000.900000) can1 220#A230005E05501A00
(1730000000.950000) can1 0A0#B004555F00000000
(1730000000.950000) can1 0C0#0000200100000000
(1730000000.950000) can1 120#000084037D000000
(1730000000.950000) can1 200#7C1E950000000000
(1730000000.950000) can1 220#A230005E05501A00
(1730000001.000000) can1 0A0#B004555F00000000
(1730000001.000000) can1 0C0#0000200100000000
(1730000001.000000) can1 120#000084037D000000
(1730000001.000000) can1 200#7C1E950000000000
(1730000001.000000) can1 220#A230005E05501A00
(1730000001.050000) can1 0A0#B004555F00000000
(1730000001.050000) can1 0C0#0000200100000000
(1730000001.050000) can1 120#000084037D000000
(1730000001.050000) can1 200#7C1E950000000000
(1730000001.050000) can1 220#A230005E05501A00
(1730000001.100000) can1 0A0#B004555F00000000
(1730000001.100000) can1 0C0#0000200100000000
(1730000001.100000) can1 120#000084037D000000
(1730000001.100000) can1 200#7C1E950000000000
(1730000001.100000) can1 220#A230005E05501A00
(1730000001.150000) can1 0A0#B004556000000000
(1730000001.150000) can1 0C0#0000200100000000
(1730000001.150000) can1 120#000084037D000000
(1730000001.150000) can1 200#7C1E950000000000
(1730000001.150000) can1 220#A230005E05501A00
(1730000001.200000) can1 0A0#B004556000000000
(1730000001.200000) can1 0C0#0000200100000000
(1730000001.200000) can1 120#000084037D000000
(1730000001.200000) can1 200#7C1E950000000000
(1730000001.200000) can1 220#A230005E05501A00
(1730000001.250000) can1 0A0#B004566000000000
(1730000001.250000) can1 0C0#0000200100000000
(1730000001.250000) can1 120#000084037D000000
(1730000001.250000) can1 200#7C1E950000000000
(1730000001.250000) can1 220#A230005E05501A00
(1730000001.300000) can1 0A0#B004566000000000
(1730000001.300000) can1 0C0#0000200100000000
(1730000001.300000) can1 120#000084037D000000
(1730000001.300000) can1 200#7C1E950000000000
(1730000001.300000) can1 220#A230005E05501A00
(1730000001.350000) can1 0A0#B004566000000000
(1730000001.350000) can1 0C0#0000200100000000
(1730000001.350000) can1 120#000084037D000000
(1730000001.350000) can1 200#7C1E950000000000
(1730000001.350000) can1 220#A230005E05501A00
(1730000001.400000) can1 0A0#B004566100000000
(1730000001.400000) can1 0C0#0000200100000000
(1730000001.400000) can1 120#000084037D000000
(1730000001.400000) can1 200#7C1E950000000000
(1730000001.400000) can1 220#A230005E05501A00
(1730000001.450000) can1 0A0#B004566100000000
(1730000001.450000) can1 0C0#0000200100000000
(1730000001.450000) can1 120#000084037D000000
(1730000001.450000) can1 200#7C1E950000000000
(1730000001.450000) can1 220#A230005E05501A00
(1730000001.500000) can1 0A0#B004566100000000
(1730000001.500000) can1 0C0#0000200100000000
(1730000001.500000) can1 120#000084037D000000
(1730000001.500000) can1 200#7C1E950000000000
(1730000001.500000) can1 220#A230005E05501A00
(1730000001.550000) can1 0A0#B004566100000000
(1730000001.550000) can1 0C0#0000200100000000
(1730000001.550000) can1 120#000084037D000000
(1730000001.550000) can1 200#7C1E950000000000
(1730000001.550000) can1 220#A230005E05501A00
(1730000001.600000) can1 0A0#B004576100000000
(1730000001.600000) can1 0C0#0000200100000000
(1730000001.600000) can1 120#000084037D000000
(1730000001.600000) can1 200#7C1E950000000000
(1730000001.600000) can1 220#A230005E05501A00
(1730000001.650000) can1 0A0#B004576100000000
(1730000001.650000) can1 0C0#0000200100000000
(1730000001.650000) can1 120#000084037D000000
(1730000001.650000) can1 200#7C1E950000000000
(1730000001.650000) can1 220#A230005E05501A00
(1730000001.700000) can1 0A0#B004576200000000
(1730000001.700000) can1 0C0#0000200100000000
(1730000001.700000) can1 120#000084037D000000
(1730000001.700000) can1 200#7B1E950000000000
(1730000001.700000) can1 220#A230005E05501A00
(1730000001.750000) can1 0A0#B004576200000000
(1730000001.750000) can1 0C0#0000200100000000
(1730000001.750000) can1 120#000084037D000000
(1730000001.750000) can1 200#7B1E950000000000
(1730000001.750000) can1 220#A230005E05501A00
(1730000001.800000) can1 0A0#B004576200000000
(1730000001.800000) can1 0C0#0000200100000000
(1730000001.800000) can1 120#000084037D000000
(1730000001.800000) can1 200#7B1E950000000000
(1730000001.800000) can1 220#A230005E05501A00
(1730000001.850000) can1 0A0#B004576200000000
(1730000001.850000) can1 0C0#0000200100000000
(1730000001.850000) can1 120#000084037D000000
(1730000001.850000) can1 200#7B1E950000000000
(1730000001.850000) can1 220#A230005E05501A00
(1730000001.900000) can1 0A0#B004586200000000
(1730000001.900000) can1 0C0#0000200100000000
(1730000001.900000) can1 120#000084037D000000
(1730000001.900000) can1 200#7B1E950000000000
(1730000001.900000) can1 220#A230005E05501A00
(1730000001.950000) can1 0A0#B004586300000000
(1730000001.950000) can1 0C0#0000200100000000
(1730000001.950000) can1 120#000084037D000000
(1730000001.950000) can1 200#7B1E950000000000
(1730000001.950000) can1 220#A230005E05501A00
(1730000002.000000) can1 0A0#B004586300000000
(1730000002.000000) can1 0C0#5203200100000000
(1730000002.000000) can1 120#0000847380000000
(1730000002.000000) can1 200#7B1E950000000000
(1730000002.000000) can1 220#A230005E05501A00
(1730000002.050000) can1 0A0#BA08586300000000
(1730000002.050000) can1 0C0#5203210000000000
(1730000002.050000) can1 120#0B005E7480000000
(1730000002.050000) can1 200#7B6E850100000000
(1730000002.050000) can1 220#A230005E05501A00
(1730000002.100000) can1 0A0#0D09586300000000
(1730000002.100000) can1 0C0#5203210000000000
(1730000002.100000) can1 120#15005F7480000000
(1730000002.100000) can1 200#7B6E850100000000
(1730000002.100000) can1 220#A230005E05501A00
(1730000002.150000) can1 0A0#6109586300000000
(1730000002.150000) can1 0C0#5203210000000000
(1730000002.150000) can1 120#2000607480000000
(1730000002.150000) can1 200#7B6E850100000000
(1730000002.150000) can1 220#A230005E05501A00
(1730000002.200000) can1 0A0#B409596300000000
(1730000002.200000) can1 0C0#5203210000000000
(1730000002.200000) can1 120#2B00607480000000
(1730000002.200000) can1 200#7B6E850100000000
(1730000002.200000) can1 220#A230005E05501A00
(1730000002.250000) can1 0A0#080A596400000000
(1730000002.250000) can1 0C0#5203210000000000
(1730000002.250000) can1 120#3600607480000000
(1730000002.250000) can1 200#7B6E850100000000
(1730000002.250000) can1 220#A230005E05501A00
(1730000002.300000) can1 0A0#5B0A596400000000
(1730000002.300000) can1 0C0#5203210000000000
(1730000002.300000) can1 120#4000607480000000
(1730000002.300000) can1 200#7B6E850100000000
(1730000002.300000) can1 220#A230005E05501A00
(1730000002.350000) can1 0A0#AF0A596400000000
(1730000002.350000) can1 0C0#5203210000000000
(1730000002.350000) can1 120#4B005F7480000000
(1730000002.350000) can1 200#7B6E850100000000
(1730000002.350000) can1 220#A230005E05501A00
(1730000002.400000) can1 0A0#030B596400000000
(1730000002.400000) can1 0C0#5203210000000000
(1730000002.400000) can1 120#56005F7480000000
(1730000002.400000) can1 200#7B6E850100000000
(1730000002.400000) can1 220#A230005E05501A00
(1730000002.450000) can1 0A0#560B596400000000
(1730000002.450000) can1 0C0#5203210000000000
(1730000002.450000) can1 120#60005E7480000000
(1730000002.450000) can1 200#7B6E850100000000
(1730000002.450000) can1 220#A230005E05501A00
(1730000002.500000) can1 0A0#AA0B5A6500000000
(1730000002.500000) can1 0C0#5203210000000000
(1730000002.500000) can1 120#6B005C7480000000
(1730000002.500000) can1 200#7B6E850100000000
(1730000002.500000) can1 220#A230005E05501A00
(1730000002.550000) can1 0A0#FD0B5A6500000000
(1730000002.550000) can1 0C0#5203210000000000
(1730000002.550000) can1 120#76005B7480000000
(1730000002.550000) can1 200#7B6E851100000000
(1730000002.550000) can1 220#A230005E05501A00
(1730000002.600000) can1 0A0#510C5A6500000000
(1730000002.600000) can1 0C0#5203210000000000
(1730000002.600000) can1 120#8100597480000000
(1730000002.600000) can1 200#7B6E851100000000
(1730000002.600000) can1 220#A230005E05501A00
(1730000002.650000) can1 0A0#A40C5A6500000000
(1730000002.650000) can1 0C0#5203210000000000
(1730000002.650000) can1 120#8B00577480000000
(1730000002.650000) can1 200#7B6E851100000000
(1730000002.650000) can1 220#A230005E05501A00
(1730000002.700000) can1 0A0#F80C5A6500000000
(1730000002.700000) can1 0C0#5203210000000000
(1730000002.700000) can1 120#9600557480000000
(1730000002.700000) can1 200#7B6E851100000000
(1730000002.700000) can1 220#A230005E05501A00
(1730000002.750000) can1 0A0#4C0D5A6500000000
(1730000002.750000) can1 0C0#5203210000000000
(1730000002.750000) can1 120#A100527480000000
(1730000002.750000) can1 200#7B6E851100000000
(1730000002.750000) can1 220#A230005E05501A00
(1730000002.800000) can1 0A0#9F0D5A6600000000
(1730000002.800000) can1 0C0#5203210000000000
(1730000002.800000) can1 120#AB00507480000000
(1730000002.800000) can1 200#7B6E851100000000
(1730000002.800000) can1 220#A230005E05501A00
(1730000002.850000) can1 0A0#F30D5B6600000000
(1730000002.850000) can1 0C0#5203210000000000
(1730000002.850000) can1 120#B6004D7480000000
(1730000002.850000) can1 200#7B6E851100000000
(1730000002.850000) can1 220#A230005E05501A00
(1730000002.900000) can1 0A0#460E5B6600000000
(1730000002.900000) can1 0C0#5203210000000000
(1730000002.900000) can1 120#C100497480000000
(1730000002.900000) can1 200#7B6E851100000000
(1730000002.900000) can1 220#A230005E05501A00
(1730000002.950000) can1 0A0#9A0E5B6600000000
(1730000002.950000) can1 0C0#5203210000000000
(1730000002.950000) can1 120#CC00467480000000
(1730000002.950000) can1 200#7B6E851100000000
(1730000002.950000) can1 220#A230005E05501A00
(1730000003.000000) can1 0A0#ED0E5B6600000000
(1730000003.000000) can1 0C0#5203210000000000
(1730000003.000000) can1 120#D600427480000000
(1730000003.000000) can1 200#7B6E851100000000
(1730000003.000000) can1 220#A230005E05501A00
(1730000003.050000) can1 0A0#410F5B6600000000
(1730000003.050000) can1 0C0#5203210000000000
(1730000003.050000) can1 120#E1003E7480000000
(1730000003.050000) can1 200#7B6E851100000000
(1730000003.050000) can1 220#A230005E05501A00
(1730000003.100000) can1 0A0#950F5B6700000000
(1730000003.100000) can1 0C0#5203210000000000
(1730000003.100000) can1 120#EC003A7480000000
(1730000003.100000) can1 200#7B6E851100000000
(1730000003.100000) can1 220#A230005E05501A00
(1730000003.150000) can1 0A0#E80F5C6700000000
(1730000003.150000) can1 0C0#5203210000000000
(1730000003.150000) can1 120#F600357480000000
(1730000003.150000) can1 200#7B6E851100000000
(1730000003.150000) can1 220#A230005E05501A00
(1730000003.200000) can1 0A0#3C105C6700000000
(1730000003.200000) can1 0C0#5203210000000000
(1730000003.200000) can1 120#0101317480000000
(1730000003.200000) can1 200#7B6E851100000000
(1730000003.200000) can1 220#A230005E05501A00
(1730000003.250000) can1 0A0#8F105C6700000000
(1730000003.250000) can1 0C0#5203210000000000
(1730000003.250000) can1 120#0C012C7480000000
(1730000003.250000) can1 200#7B6E850100000000
(1730000003.250000) can1 220#A230005E05501A00
(1730000003.300000) can1 0A0#E3105C6700000000
(1730000003.300000) can1 0C0#5203210000000000
(1730000003.300000) can1 120#1701277480000000
(1730000003.300000) can1 200#7B6E850100000000
(1730000003.300000) can1 220#A230005E05501A00
(1730000003.350000) can1 0A0#36115C6800000000
(1730000003.350000) can1 0C0#5203210000000000
(1730000003.350000) can1 120#2101217480000000
(1730000003.350000) can1 200#7B6E850100000000
(1730000003.350000) can1 220#A230005E05501A00
(1730000003.400000) can1 0A0#8A115C6800000000
(1730000003.400000) can1 0C0#5203210000000000
(1730000003.400000) can1 120#2C011C7480000000
(1730000003.400000) can1 200#7B6E850100000000
(1730000003.400000) can1 220#A230005E05501A00
(1730000003.450000) can1 0A0#DE115D6800000000
(1730000003.450000) can1 0C0#5203210000000000
(1730000003.450000) can1 120#3701167480000000
(1730000003.450000) can1 200#7B6E850100000000
(1730000003.450000) can1 220#A230005E05501A00
(1730000003.500000) can1 0A0#31125D6800000000
(1730000003.500000) can1 0C0#5203210000000000
(1730000003.500000) can1 120#4101107480000000
(1730000003.500000) can1 200#7B6E850100000000
(1730000003.500000) can1 220#A230005E05501A00
(1730000003.550000) can1 0A0#85125D6800000000
(1730000003.550000) can1 0C0#5203210000000000
(1730000003.550000) can1 120#4C010A7480000000
(1730000003.550000) can1 200#7B6E850100000000
(1730000003.550000) can1 220#A230005E05501A00
(1730000003.600000) can1 0A0#D8125D6800000000
(1730000003.600000) can1 0C0#5203210000000000
(1730000003.600000) can1 120#5701047480000000
(1730000003.600000) can1 200#7B6E850100000000
(1730000003.600000) can1 220#A230005E05501A00
(1730000003.650000) can1 0A0#2C135D6900000000
(1730000003.650000) can1 0C0#5203210000000000
(1730000003.650000) can1 120#6201FE7380000000
(1730000003.650000) can1 200#7B6E850100000000
(1730000003.650000) can1 220#A230005E05501A00
(1730000003.700000) can1 0A0#7F135D6900000000
(1730000003.700000) can1 0C0#5203210000000000
(1730000003.700000) can1 120#6C01F77380000000
(1730000003.700000) can1 200#7B6E850100000000
(1730000003.700000) can1 220#A230005E05501A00
(1730000003.750000) can1 0A0#D3135D6900000000
(1730000003.750000) can1 0C0#5203210000000000
(1730000003.750000) can1 120#7701F17380000000
(1730000003.750000) can1 200#7B6E850100000000
(1730000003.750000) can1 220#A230005E05501A00
(1730000003.800000) can1 0A0#27145E6900000000
(1730000003.800000) can1 0C0#5203210000000000
(1730000003.800000) can1 120#8201EA7380000000
(1730000003.800000) can1 200#7B6E850100000000
(1730000003.800000) can1 220#A230005E05501A00
(1730000003.850000) can1 0A0#7A145E6900000000
(1730000003.850000) can1 0C0#5203210000000000
(1730000003.850000) can1 120#8C01E37380000000
(1730000003.850000) can1 200#7B6E850100000000
(1730000003.850000) can1 220#A230005E05501A00
(1730000003.900000) can1 0A0#70135E6A00000000
(1730000003.900000) can1 0C0#5203220000000000
(1730000003.900000) can1 120#9701DC7380000000
(1730000003.900000) can1 200#7B6E850100000000
(1730000003.900000) can1 220#A230005E05501A00
(1730000003.950000) can1 0A0#C3135E6A00000000
(1730000003.950000) can1 0C0#5203220000000000
(1730000003.950000) can1 120#A201D57380000000
(1730000003.950000) can1 200#7B6E850100000000
(1730000003.950000) can1 220#A230005E05501A00
(1730000004.000000) can1 0A0#17145E6A00000000
(1730000004.000000) can1 0C0#5203220000000000
(1730000004.000000) can1 120#AD01CE7380000000
(1730000004.000000) can1 200#7B6E850100000000
(1730000004.000000) can1 220#A230005E05501A00
(1730000004.050000) can1 0A0#6A145E6A00000000
(1730000004.050000) can1 0C0#5203220000000000
(1730000004.050000) can1 120#B701C67380000000
(1730000004.050000) can1 200#7B6E850100000000
(1730000004.050000) can1 220#A230005E05501A00
(1730000004.100000) can1 0A0#BE145F6A00000000
(1730000004.100000) can1 0C0#5203220000000000
(1730000004.100000) can1 120#C201BF7380000000
(1730000004.100000) can1 200#7B6E850100000000
(1730000004.100000) can1 220#A230005E05501A00
(1730000004.150000) can1 0A0#12155F6A00000000
(1730000004.150000) can1 0C0#5203220000000000
(1730000004.150000) can1 120#CD01B87380000000
(1730000004.150000) can1 200#7B6E850100000000
(1730000004.150000) can1 220#A230005E05501A00
(1730000004.200000) can1 0A0#65155F6B00000000
(1730000004.200000) can1 0C0#5203220000000000
(1730000004.200000) can1 120#D701B07380000000
(1730000004.200000) can1 200#7B6E850100000000
(1730000004.200000) can1 220#A230005E05501A00
(1730000004.250000) can1 0A0#B9155F6B00000000
(1730000004.250000) can1 0C0#5203220000000000
(1730000004.250000) can1 120#E201A87380000000
(1730000004.250000) can1 200#7B6E850100000000
(1730000004.250000) can1 220#A230005E05501A00
(1730000004.300000) can1 0A0#0C165F6B00000000
(1730000004.300000) can1 0C0#5203220000000000
(1730000004.300000) can1 120#ED01A17380000000
(1730000004.300000) can1 200#7B6E850100000000
(1730000004.300000) can1 220#A230005E05501A00
(1730000004.350000) can1 0A0#60165F6B00000000
(1730000004.350000) can1 0C0#5203220000000000
(1730000004.350000) can1 120#F801997380000000
(1730000004.350000) can1 200#7B6E850100000000
(1730000004.350000) can1 220#A230005E05501A00
(1730000004.400000) can1 0A0#B316606B00000000
(1730000004.400000) can1 0C0#5203220000000000
(1730000004.400000) can1 120#0202927380000000
(1730000004.400000) can1 200#7B6E850100000000
(1730000004.400000) can1 220#A230005E05501A00
(1730000004.450000) can1 0A0#0717606C00000000
(1730000004.450000) can1 0C0#5203220000000000
(1730000004.450000) can1 120#0D028A7380000000
(1730000004.450000) can1 200#7B6E850100000000
(1730000004.450000) can1 220#A230005E05501A00
(1730000004.500000) can1 0A0#5B17606C00000000
(1730000004.500000) can1 0C0#5203220000000000
(1730000004.500000) can1 120#1802827380000000
(1730000004.500000) can1 200#7B6E850100000000
(1730000004.500000) can1 220#A230005E05501A00
(1730000004.550000) can1 0A0#AE17606C00000000
(1730000004.550000) can1 0C0#5203220000000000
(1730000004.550000) can1 120#22027A7380000000
(1730000004.550000) can1 200#7B6E850100000000
(1730000004.550000) can1 220#A230005E05501A00
(1730000004.600000) can1 0A0#0218606C00000000
(1730000004.600000) can1 0C0#5203220000000000
(1730000004.600000) can1 120#2D02737380000000
(1730000004.600000) can1 200#7B6E850100000000
(1730000004.600000) can1 220#A230005E05501A00
(1730000004.650000) can1 0A0#5518606C00000000
(1730000004.650000) can1 0C0#5203220000000000
(1730000004.650000) can1 120#38026B7380000000
(1730000004.650000) can1 200#7B6E850100000000
(1730000004.650000) can1 220#A230005E05501A00
(1730000004.700000) can1 0A0#A918616C00000000
(1730000004.700000) can1 0C0#5203220000000000
(1730000004.700000) can1 120#4302637380000000
(1730000004.700000) can1 200#7B6E850100000000
(1730000004.700000) can1 220#A230005E05501A00
(1730000004.750000) can1 0A0#FC18616D00000000
(1730000004.750000) can1 0C0#5203220000000000
(1730000004.750000) can1 120#4D025C7380000000
(1730000004.750000) can1 200#7B6E850100000000
(1730000004.750000) can1 220#A230005E05501A00
(1730000004.800000) can1 0A0#5019616D00000000
(1730000004.800000) can1 0C0#5203220000000000
(1730000004.800000) can1 120#5802547380000000
(1730000004.800000) can1 200#7B6E850100000000
(1730000004.800000) can1 220#A230005E05501A00
(1730000004.850000) can1 0A0#A419616D00000000
(1730000004.850000) can1 0C0#5203220000000000
(1730000004.850000) can1 120#63024D7380000000
(1730000004.850000) can1 200#7B6E850100000000
(1730000004.850000) can1 220#A230005E05501A00
(1730000004.900000) can1 0A0#F719616D00000000
(1730000004.900000) can1 0C0#5203220000000000
(1730000004.900000) can1 120#6D02457380000000
(1730000004.900000) can1 200#7B6E850100000000
(1730000004.900000) can1 220#A230005E05501A00
(1730000004.950000) can1 0A0#4B1A616D00000000
(1730000004.950000) can1 0C0#5203220000000000
(1730000004.950000) can1 120#78023E7380000000
(1730000004.950000) can1 200#7B6E850100000000
(1730000004.950000) can1 220#A330005E05501A00
(1730000005.000000) can1 0A0#9E1A616D00000000
(1730000005.000000) can1 0C0#5203220000000000
(1730000005.000000) can1 120#8302377380000000
(1730000005.000000) can1 200#7B6E850100000000
(1730000005.000000) can1 220#A330005E05501A00
(1730000005.050000) can1 0A0#F21A626E00000000
(1730000005.050000) can1 0C0#5203220000000000
(1730000005.050000) can1 120#8E02307380000000
(1730000005.050000) can1 200#7A6E850100000000
(1730000005.050000) can1 220#A330005E05501A00
(1730000005.100000) can1 0A0#451B626E00000000
(1730000005.100000) can1 0C0#5203220000000000
(1730000005.100000) can1 120#9802297380000000
(1730000005.100000) can1 200#7A6E850100000000
(1730000005.100000) can1 220#A330005E05501A00
(1730000005.150000) can1 0A0#991B626E00000000
(1730000005.150000) can1 0C0#5203220000000000
(1730000005.150000) can1 120#A302227380000000
(1730000005.150000) can1 200#7A6E850100000000
(1730000005.150000) can1 220#A330005E05501A00
(1730000005.200000) can1 0A0#ED1B626E00000000
(1730000005.200000) can1 0C0#5203220000000000
(1730000005.200000) can1 120#AE021B7380000000
(1730000005.200000) can1 200#7A6E850100000000
(1730000005.200000) can1 220#A330005E05501A00
(1730000005.250000) can1 0A0#401C626E00000000
(1730000005.250000) can1 0C0#5203220000000000
(1730000005.250000) can1 120#B802147380000000
(1730000005.250000) can1 200#7A6E850100000000
(1730000005.250000) can1 220#A330005E05501A00
(1730000005.300000) can1 0A0#361B626F00000000
(1730000005.300000) can1 0C0#5203230000000000
(1730000005.300000) can1 120#C3020E7380000000
(1730000005.300000) can1 200#7A6E850100000000
(1730000005.300000) can1 220#A330005E05501A00
(1730000005.350000) can1 0A0#891B636F00000000
(1730000005.350000) can1 0C0#5203230000000000
(1730000005.350000) can1 120#CE02077380000000
(1730000005.350000) can1 200#7A6E850100000000
(1730000005.350000) can1 220#A330005E05501A00
(1730000005.400000) can1 0A0#DD1B636F00000000
(1730000005.400000) can1 0C0#5203230000000000
(1730000005.400000) can1 120#D902017380000000
(1730000005.400000) can1 200#7A6E850100000000
(1730000005.400000) can1 220#A330005E05501A00
(1730000005.450000) can1 0A0#301C636F00000000
(1730000005.450000) can1 0C0#5203230000000000
(1730000005.450000) can1 120#E302FB7280000000
(1730000005.450000) can1 200#7A6E850100000000
(1730000005.450000) can1 220#A330005E05501A00
(1730000005.500000) can1 0A0#841C636F00000000
(1730000005.500000) can1 0C0#5203230000000000
(1730000005.500000) can1 120#EE02F57280000000
(1730000005.500000) can1 200#7A6E850100000000
(1730000005.500000) can1 220#A330005E05501A00
(1730000005.550000) can1 0A0#D81C636F00000000
(1730000005.550000) can1 0C0#5203230000000000
(1730000005.550000) can1 120#F902EF7280000000
(1730000005.550000) can1 200#7A6E850100000000
(1730000005.550000) can1 220#A330005E05501A00
(1730000005.600000) can1 0A0#2B1D637000000000
(1730000005.600000) can1 0C0#5203230000000000
(1730000005.600000) can1 120#0303EA7280000000
(1730000005.600000) can1 200#7A6E850100000000
(1730000005.600000) can1 220#A330005E05501A00
(1730000005.650000) can1 0A0#7F1D647000000000
(1730000005.650000) can1 0C0#5203230000000000
(1730000005.650000) can1 120#0E03E47280000000
(1730000005.650000) can1 200#7A6E850100000000
(1730000005.650000) can1 220#A330005E05501A00
(1730000005.700000) can1 0A0#D21D647000000000
(1730000005.700000) can1 0C0#5203230000000000
(1730000005.700000) can1 120#1903DF7280000000
(1730000005.700000) can1 200#7A6E850100000000
(1730000005.700000) can1 220#A330005E05501A00
(1730000005.750000) can1 0A0#261E647000000000
(1730000005.750000) can1 0C0#5203230000000000
(1730000005.750000) can1 120#2403DA7280000000
(1730000005.750000) can1 200#7A6E850100000000
(1730000005.750000) can1 220#A330005E05501A00
(1730000005.800000) can1 0A0#791E647000000000
(1730000005.800000) can1 0C0#5203230000000000
(1730000005.800000) can1 120#2E03D57280000000
(1730000005.800000) can1 200#7A6E850100000000
(1730000005.800000) can1 220#A330005E05501A00
(1730000005.850000) can1 0A0#CD1E647100000000
(1730000005.850000) can1 0C0#5203230000000000
(1730000005.850000) can1 120#3903D17280000000
(1730000005.850000) can1 200#7A6E850100000000
(1730000005.850000) can1 220#A330005E05501A00
(1730000005.900000) can1 0A0#211F647100000000
(1730000005.900000) can1 0C0#5203230000000000
(1730000005.900000) can1 120#4403CC7280000000
(1730000005.900000) can1 200#7A6E850100000000
(1730000005.900000) can1 220#A330005E05501A00
(1730000005.950000) can1 0A0#741F657100000000
(1730000005.950000) can1 0C0#5203230000000000
(1730000005.950000) can1 120#4E03C87280000000
(1730000005.950000) can1 200#7A6E850100000000
(1730000005.950000) can1 220#A330005E05501A00
(1730000006.000000) can1 0A0#C81F657100000000
(1730000006.000000) can1 0C0#5203230000000000
(1730000006.000000) can1 120#5903C47280000000
(1730000006.000000) can1 200#7A6E850100000000
(1730000006.000000) can1 220#A330005E05501A00
(1730000006.050000) can1 0A0#1B20657100000000
(1730000006.050000) can1 0C0#5203230000000000
(1730000006.050000) can1 120#6403C17280000000
(1730000006.050000) can1 200#7A6E850100000000
(1730000006.050000) can1 220#A330005E05501A00
(1730000006.100000) can1 0A0#6F20657100000000
(1730000006.100000) can1 0C0#5203230000000000
(1730000006.100000) can1 120#6F03BD7280000000
(1730000006.100000) can1 200#7A6E850100000000
(1730000006.100000) can1 220#A330005E05501A00
(1730000006.150000) can1 0A0#C220657200000000
(1730000006.150000) can1 0C0#5203230000000000
(1730000006.150000) can1 120#7903BA7280000000
(1730000006.150000) can1 200#7A6E850100000000
(1730000006.150000) can1 220#A330005E05501A00
(1730000006.200000) can1 0A0#1621657200000000
(1730000006.200000) can1 0C0#5203230000000000
(1730000006.200000) can1 120#8403B77280000000
(1730000006.200000) can1 200#7A6E850100000000
(1730000006.200000) can1 220#A330005E05501A00
(1730000006.250000) can1 0A0#6A21657200000000
(1730000006.250000) can1 0C0#5203230000000000
(1730000006.250000) can1 120#8F03B47280000000
(1730000006.250000) can1 200#7A6E850100000000
(1730000006.250000) can1 220#A330005E05501A00
(1730000006.300000) can1 0A0#BD21667200000000
(1730000006.300000) can1 0C0#5203230000000000
(1730000006.300000) can1 120#9903B27280000000
(1730000006.300000) can1 200#7A6E850100000000
(1730000006.300000) can1 220#A330005E05501A00
(1730000006.350000) can1 0A0#1122667200000000
(1730000006.350000) can1 0C0#5203230000000000
(1730000006.350000) can1 120#A403B07280000000
(1730000006.350000) can1 200#7A6E850100000000
(1730000006.350000) can1 220#A330005E05501A00
(1730000006.400000) can1 0A0#6422667300000000
(1730000006.400000) can1 0C0#5203230000000000
(1730000006.400000) can1 120#AF03AE7280000000
(1730000006.400000) can1 200#7A6E850100000000
(1730000006.400000) can1 220#A330005E05501A00
(1730000006.450000) can1 0A0#B822667300000000
(1730000006.450000) can1 0C0#5203230000000000
(1730000006.450000) can1 120#BA03AC7280000000
(1730000006.450000) can1 200#7A6E850100000000
(1730000006.450000) can1 220#A330005E05501A00
(1730000006.500000) can1 0A0#0B23667300000000
(1730000006.500000) can1 0C0#5203230000000000
(1730000006.500000) can1 120#C403AB7280000000
(1730000006.500000) can1 200#7A6E850100000000
(1730000006.500000) can1 220#A330005E05501A00
(1730000006.550000) can1 0A0#5F23667300000000
(1730000006.550000) can1 0C0#5203230000000000
(1730000006.550000) can1 120#CF03AA7280000000
(1730000006.550000) can1 200#7A6E850100000000
(1730000006.550000) can1 220#A330005E05501A00
(1730000006.600000) can1 0A0#B323677300000000
(1730000006.600000) can1 0C0#5203230000000000
(1730000006.600000) can1 120#DA03A97280000000
(1730000006.600000) can1 200#7A6E850100000000
(1730000006.600000) can1 220#A330005E05501A00
(1730000006.650000) can1 0A0#0624677300000000
(1730000006.650000) can1 0C0#5203230000000000
(1730000006.650000) can1 120#E403A87280000000
(1730000006.650000) can1 200#7A6E850100000000
(1730000006.650000) can1 220#A330005E05501A00
(1730000006.700000) can1 0A0#FC22677400000000
(1730000006.700000) can1 0C0#5203240000000000
(1730000006.700000) can1 120#EF03A87280000000
(1730000006.700000) can1 200#7A6E850100000000
(1730000006.700000) can1 220#A330005E05501A00
(1730000006.750000) can1 0A0#4F23677400000000
(1730000006.750000) can1 0C0#5203240000000000
(1730000006.750000) can1 120#FA03A87280000000
(1730000006.750000) can1 200#7A6E850100000000
(1730000006.750000) can1 220#A330005E05501A00
(1730000006.800000) can1 0A0#A323677400000000
(1730000006.800000) can1 0C0#5203240000000000
(1730000006.800000) can1 120#0504A87280000000
(1730000006.800000) can1 200#7A6E850100000000
(1730000006.800000) can1 220#A330005E05501A00
(1730000006.850000) can1 0A0#F623677400000000
(1730000006.850000) can1 0C0#5203240000000000
(1730000006.850000) can1 120#0F04A97280000000
(1730000006.850000) can1 200#7A6E850100000000
(1730000006.850000) can1 220#A330005E05501A00
(1730000006.900000) can1 0A0#4A24687400000000
(1730000006.900000) can1 0C0#5203240000000000
(1730000006.900000) can1 120#1A04AA7280000000
(1730000006.900000) can1 200#7A6E850100000000
(1730000006.900000) can1 220#A330005E05501A00
(1730000006.950000) can1 0A0#9E24687500000000
(1730000006.950000) can1 0C0#5203240000000000
(1730000006.950000) can1 120#2504AB7280000000
(1730000006.950000) can1 200#7A6E850100000000
(1730000006.950000) can1 220#A330005E05501A00
(1730000007.000000) can1 0A0#F124687500000000
(1730000007.000000) can1 0C0#5203240000000000
(1730000007.000000) can1 120#2F04AC7280000000
(1730000007.000000) can1 200#7A6E850100000000
(1730000007.000000) can1 220#A330005E05501A00
(1730000007.050000) can1 0A0#4525687500000000
(1730000007.050000) can1 0C0#5203240000000000
(1730000007.050000) can1 120#3A04AD7280000000
(1730000007.050000) can1 200#7A6E850100000000
(1730000007.050000) can1 220#A330005E05501A00
(1730000007.100000) can1 0A0#9825687500000000
(1730000007.100000) can1 0C0#5203240000000000
(1730000007.100000) can1 120#4504AF7280000000
(1730000007.100000) can1 200#7A6E850100000000
(1730000007.100000) can1 220#A330005E05501A00
(1730000007.150000) can1 0A0#EC25687500000000
(1730000007.150000) can1 0C0#5203240000000000
(1730000007.150000) can1 120#5004B17280000000
(1730000007.150000) can1 200#7A6E850100000000
(1730000007.150000) can1 220#A330005E05501A00
(1730000007.200000) can1 0A0#3F26697500000000
(1730000007.200000) can1 0C0#5203240000000000
(1730000007.200000) can1 120#5A04B47280000000
(1730000007.200000) can1 200#7A6E850100000000
(1730000007.200000) can1 220#A330005E05501A00
(1730000007.250000) can1 0A0#9326697600000000
(1730000007.250000) can1 0C0#5203240000000000
(1730000007.250000) can1 120#6504B67280000000
(1730000007.250000) can1 200#7A6E850100000000
(1730000007.250000) can1 220#A330005E05501A00
(1730000007.300000) can1 0A0#E726697600000000
(1730000007.300000) can1 0C0#5203240000000000
(1730000007.300000) can1 120#7004B97280000000
(1730000007.300000) can1 200#7A6E850100000000
(1730000007.300000) can1 220#A330005E05501A00
(1730000007.350000) can1 0A0#3A27697600000000
(1730000007.350000) can1 0C0#5203240000000000
(1730000007.350000) can1 120#7A04BC7280000000
(1730000007.350000) can1 200#7A6E850100000000
(1730000007.350000) can1 220#A330005E05501A00
(1730000007.400000) can1 0A0#8E27697600000000
(1730000007.400000) can1 0C0#5203240000000000
(1730000007.400000) can1 120#8504C07280000000
(1730000007.400000) can1 200#7A6E850100000000
(1730000007.400000) can1 220#A330005E05501A00
(1730000007.450000) can1 0A0#E127697600000000
(1730000007.450000) can1 0C0#5203240000000000
(1730000007.450000) can1 120#9004C37280000000
(1730000007.450000) can1 200#7A6E850100000000
(1730000007.450000) can1 220#A330005E05501A00
(1730000007.500000) can1 0A0#3528697600000000
(1730000007.500000) can1 0C0#5203240000000000
(1730000007.500000) can1 120#9B04C77280000000
(1730000007.500000) can1 200#7A6E850100000000
(1730000007.500000) can1 220#A330005E05501A00
(1730000007.550000) can1 0A0#88286A7700000000
(1730000007.550000) can1 0C0#5203240000000000
(1730000007.550000) can1 120#A504CB7280000000
(1730000007.550000) can1 200#7A6E850100000000
(1730000007.550000) can1 220#A330005E05501A00
(1730000007.600000) can1 0A0#DC286A7700000000
(1730000007.600000) can1 0C0#5203240000000000
(1730000007.600000) can1 120#B004CF7280000000
(1730000007.600000) can1 200#7A6E850100000000
(1730000007.600000) can1 220#A330005E05501A00
(1730000007.650000) can1 0A0#30296A7700000000
(1730000007.650000) can1 0C0#5203240000000000
(1730000007.650000) can1 120#BB04D47280000000
(1730000007.650000) can1 200#7A6E850100000000
(1730000007.650000) can1 220#A330005E05501A00
(1730000007.700000) can1 0A0#83296A7700000000
(1730000007.700000) can1 0C0#5203240000000000
(1730000007.700000) can1 120#C504D97280000000
(1730000007.700000) can1 200#7A6E850100000000
(1730000007.700000) can1 220#A330005E05501A00
(1730000007.750000) can1 0A0#D7296A7700000000
(1730000007.750000) can1 0C0#5203240000000000
(1730000007.750000) can1 120#D004DE7280000000
(1730000007.750000) can1 200#7A6E850100000000
(1730000007.750000) can1 220#A330005E05501A00
(1730000007.800000) can1 0A0#2A2A6A7800000000
(1730000007.800000) can1 0C0#5203240000000000
(1730000007.800000) can1 120#DB04E37280000000
(1730000007.800000) can1 200#7A6E850100000000
(1730000007.800000) can1 220#A330005E05501A00
(1730000007.850000) can1 0A0#7E2A6B7800000000
(1730000007.850000) can1 0C0#5203240000000000
(1730000007.850000) can1 120#E604E87280000000
(1730000007.850000) can1 200#7A6E850100000000
(1730000007.850000) can1 220#A330005E05501A00
(1730000007.900000) can1 0A0#D12A6B7800000000
(1730000007.900000) can1 0C0#5203240000000000
(1730000007.900000) can1 120#F004EE7280000000
(1730000007.900000) can1 200#7A6E850100000000
(1730000007.900000) can1 220#A330005E05501A00
(1730000007.950000) can1 0A0#252B6B7800000000
(1730000007.950000) can1 0C0#5203240000000000
(1730000007.950000) can1 120#FB04F37280000000
(1730000007.950000) can1 200#7A6E850100000000
(1730000007.950000) can1 220#A330005E05501A00
(1730000008.000000) can1 0A0#792B6B7800000000
(1730000008.000000) can1 0C0#5203240000000000
(1730000008.000000) can1 120#0605F97280000000
(1730000008.000000) can1 200#7A6E850100000000
(1730000008.000000) can1 220#A330005E05501A00
(1730000008.050000) can1 0A0#CC2B6B7800000000
(1730000008.050000) can1 0C0#5203240000000000
(1730000008.050000) can1 120#1005FF7280000000
(1730000008.050000) can1 200#7A6E850100000000
(1730000008.050000) can1 220#A330005E05501A00
(1730000008.100000) can1 0A0#C22A6B7900000000
(1730000008.100000) can1 0C0#5203250000000000
(1730000008.100000) can1 120#1B05057380000000
(1730000008.100000) can1 200#7A6E850100000000
(1730000008.100000) can1 220#A330005E05501A00
(1730000008.150000) can1 0A0#152B6C7900000000
(1730000008.150000) can1 0C0#5203250000000000
(1730000008.150000) can1 120#26050C7380000000
(1730000008.150000) can1 200#7A6E850100000000
(1730000008.150000) can1 220#A330005E05501A00
(1730000008.200000) can1 0A0#692B6C7900000000
(1730000008.200000) can1 0C0#5203250000000000
(1730000008.200000) can1 120#3105127380000000
(1730000008.200000) can1 200#7A6E850100000000
(1730000008.200000) can1 220#A330005E05501A00
(1730000008.250000) can1 0A0#BC2B6C7900000000
(1730000008.250000) can1 0C0#5203250000000000
(1730000008.250000) can1 120#3B05197380000000
(1730000008.250000) can1 200#7A6E850100000000
(1730000008.250000) can1 220#A330005E05501A00
(1730000008.300000) can1 0A0#102C6C7901000000
(1730000008.300000) can1 0C0#5203250000000000
(1730000008.300000) can1 120#4605207380000000
(1730000008.300000) can1 200#7A6E850100000000
(1730000008.300000) can1 220#A330005E05501A00
(1730000008.350000) can1 0A0#642C6C7A01000000
(1730000008.350000) can1 0C0#5203250000000000
(1730000008.350000) can1 120#5105277380000000
(1730000008.350000) can1 200#796E850100000000
(1730000008.350000) can1 220#A330005E05501A00
(1730000008.400000) can1 0A0#882C6C7A01000000
(1730000008.400000) can1 0C0#5203250000000000
(1730000008.400000) can1 120#5B052E7380000000
(1730000008.400000) can1 200#796E850100000000
(1730000008.400000) can1 220#A330005E05501A00
(1730000008.450000) can1 0A0#882C6D7A01000000
(1730000008.450000) can1 0C0#5203250000000000
(1730000008.450000) can1 120#6605357380000000
(1730000008.450000) can1 200#796E850100000000
(1730000008.450000) can1 220#A330005E05501A00
(1730000008.500000) can1 0A0#882C6D7A01000000
(1730000008.500000) can1 0C0#5203250000000000
(1730000008.500000) can1 120#71053C7380000000
(1730000008.500000) can1 200#796E850100000000
(1730000008.500000) can1 220#A330005E05501A00
(1730000008.550000) can1 0A0#882C6D7A01000000
(1730000008.550000) can1 0C0#5203250000000000
(1730000008.550000) can1 120#7C05437380000000
(1730000008.550000) can1 200#796E850100000000
(1730000008.550000) can1 220#A330005E05501A00
(1730000008.600000) can1 0A0#882C6D7A01000000
(1730000008.600000) can1 0C0#5203250000000000
(1730000008.600000) can1 120#86054B7380000000
(1730000008.600000) can1 200#796E850100000000
(1730000008.600000) can1 220#A330005E05501A00
(1730000008.650000) can1 0A0#882C6D7B01000000
(1730000008.650000) can1 0C0#5203250000000000
(1730000008.650000) can1 120#9105527380000000
(1730000008.650000) can1 200#796E850100000000
(1730000008.650000) can1 220#A330005E05501A00
(1730000008.700000) can1 0A0#882C6D7B01000000
(1730000008.700000) can1 0C0#5203250000000000
(1730000008.700000) can1 120#9C055A7380000000
(1730000008.700000) can1 200#796E850100000000
(1730000008.700000) can1 220#A330005E05501A00
(1730000008.750000) can1 0A0#882C6D7B01000000
(1730000008.750000) can1 0C0#5203250000000000
(1730000008.750000) can1 120#A605617380000000
(1730000008.750000) can1 200#796E850100000000
(1730000008.750000) can1 220#A330005E05501A00
(1730000008.800000) can1 0A0#882C6E7B01000000
(1730000008.800000) can1 0C0#5203250000000000
(1730000008.800000) can1 120#B105697380000000
(1730000008.800000) can1 200#796E850100000000
(1730000008.800000) can1 220#A330005E05501A00
(1730000008.850000) can1 0A0#882C6E7B01000000
(1730000008.850000) can1 0C0#5203250000000000
(1730000008.850000) can1 120#BC05717380000000
(1730000008.850000) can1 200#796E850100000000
(1730000008.850000) can1 220#A330005E05501A00
(1730000008.900000) can1 0A0#882C6E7C01000000
(1730000008.900000) can1 0C0#5203250000000000
(1730000008.900000) can1 120#C705787380000000
(1730000008.900000) can1 200#796E850100000000
(1730000008.900000) can1 220#A330005E05501A00
(1730000008.950000) can1 0A0#882C6E7C01000000
(1730000008.950000) can1 0C0#5203250000000000
(1730000008.950000) can1 120#D105807380000000
(1730000008.950000) can1 200#796E850100000000
(1730000008.950000) can1 220#A330005E05501A00
(1730000009.000000) can1 0A0#882C6E7C01000000
(1730000009.000000) can1 0C0#5203250000000000
(1730000009.000000) can1 120#DC05887380000000
(1730000009.000000) can1 200#796E850100000000
(1730000009.000000) can1 220#A330005E05501A00
(1730000009.050000) can1 0A0#882C6E7C01000000
(1730000009.050000) can1 0C0#5E01250000000000
(1730000009.050000) can1 120#DC058F037D000000
(1730000009.050000) can1 200#796E850100000000
(1730000009.050000) can1 220#A330005E05501A00
(1730000009.100000) can1 0A0#882C6F7C01000000
(1730000009.100000) can1 0C0#5E01250000000000
(1730000009.100000) can1 120#DC0597037D000000
(1730000009.100000) can1 200#796E850100000000
(1730000009.100000) can1 220#A330005E05501A00
(1730000009.150000) can1 0A0#882C6F7C01000000
(1730000009.150000) can1 0C0#5E01250000000000
(1730000009.150000) can1 120#DC059F037D000000
(1730000009.150000) can1 200#796E850100000000
(1730000009.150000) can1 220#A330005E05501A00
(1730000009.200000) can1 0A0#882C6F7D01000000
(1730000009.200000) can1 0C0#5E01250000000000
(1730000009.200000) can1 120#DC05A6037D000000
(1730000009.200000) can1 200#796E850100000000
(1730000009.200000) can1 220#A330005E05501A00
(1730000009.250000) can1 0A0#882C6F7D01000000
(1730000009.250000) can1 0C0#5E01250000000000
(1730000009.250000) can1 120#DC05AE037D000000
(1730000009.250000) can1 200#796E850100000000
(1730000009.250000) can1 220#A330005E05501A00
(1730000009.300000) can1 0A0#882C6F7D01000000
(1730000009.300000) can1 0C0#5E01250000000000
(1730000009.300000) can1 120#DC05B5037D000000
(1730000009.300000) can1 200#796E850100000000
(1730000009.300000) can1 220#A330005E05501A00
(1730000009.350000) can1 0A0#882C6F7D01000000
(1730000009.350000) can1 0C0#5E01250000000000
(1730000009.350000) can1 120#DC05BD037D000000
(1730000009.350000) can1 200#796E850100000000
(1730000009.350000) can1 220#A330005E05501A00
(1730000009.400000) can1 0A0#882C707D01000000
(1730000009.400000) can1 0C0#5E01250000000000
(1730000009.400000) can1 120#DC05C4037D000000
(1730000009.400000) can1 200#796E850100000000
(1730000009.400000) can1 220#A330005E05501A00
(1730000009.450000) can1 0A0#882C707E01000000
(1730000009.450000) can1 0C0#5E01250000000000
(1730000009.450000) can1 120#DC05CC037D000000
(1730000009.450000) can1 200#796E850100000000
(1730000009.450000) can1 220#A330005E05501A00
(1730000009.500000) can1 0A0#882C707E01000000
(1730000009.500000) can1 0C0#5E01250000000000
(1730000009.500000) can1 120#DC05D3037D000000
(1730000009.500000) can1 200#796E850100000000
(1730000009.500000) can1 220#A330005E05501A00
(1730000009.550000) can1 0A0#882C707E01000000
(1730000009.550000) can1 0C0#5E01250000000000
(1730000009.550000) can1 120#DC05DA037D000000
(1730000009.550000) can1 200#796E850100000000
(1730000009.550000) can1 220#A330005E05501A00
(1730000009.600000) can1 0A0#882C707E01000000
(1730000009.600000) can1 0C0#5E01250000000000
(1730000009.600000) can1 120#DC05E1037D000000
(1730000009.600000) can1 200#796E850100000000
(1730000009.600000) can1 220#A330005E05501A00
(1730000009.650000) can1 0A0#882C707E01000000
(1730000009.650000) can1 0C0#5E01250000000000
(1730000009.650000) can1 120#DC05E8037D000000
(1730000009.650000) can1 200#796E850100000000
(1730000009.650000) can1 220#A330005E05501A00
(1730000009.700000) can1 0A0#882C717E01000000
(1730000009.700000) can1 0C0#5E01250000000000
(1730000009.700000) can1 120#DC05EF037D000000
(1730000009.700000) can1 200#796E850100000000
(1730000009.700000) can1 220#A330005E05501A00
(1730000009.750000) can1 0A0#882C717F01000000
(1730000009.750000) can1 0C0#5E01250000000000
(1730000009.750000) can1 120#DC05F5037D000000
(1730000009.750000) can1 200#796E850100000000
(1730000009.750000) can1 220#A330005E05501A00
(1730000009.800000) can1 0A0#882C717F01000000
(1730000009.800000) can1 0C0#5E01250000000000
(1730000009.800000) can1 120#DC05FC037D000000
(1730000009.800000) can1 200#796E850100000000
(1730000009.800000) can1 220#A330005E05501A00
(1730000009.850000) can1 0A0#882C717F01000000
(1730000009.850000) can1 0C0#5E01250000000000
(1730000009.850000) can1 120#DC0502047D000000
(1730000009.850000) can1 200#796E850100000000
(1730000009.850000) can1 220#A330005E05501A00
(1730000009.900000) can1 0A0#882C717F01000000
(1730000009.900000) can1 0C0#5E01250000000000
(1730000009.900000) can1 120#DC0509047D000000
(1730000009.900000) can1 200#796E850100000000
(1730000009.900000) can1 220#A330005E05501A00
(1730000009.950000) can1 0A0#882C717F01000000
(1730000009.950000) can1 0C0#5E01250000000000
(1730000009.950000) can1 120#DC050F047D000000
(1730000009.950000) can1 200#796E850100000000
(1730000009.950000) can1 220#A330005E05501A00
(1730000010.000000) can1 0A0#882C728001000000
(1730000010.000000) can1 0C0#5E01250000000000
(1730000010.000000) can1 120#DC0515047D000000
(1730000010.000000) can1 200#796E850100000000
(1730000010.000000) can1 220#A330005E05501A00
(1730000010.050000) can1 0A0#882C728001000000
(1730000010.050000) can1 0C0#5E01250000000000
(1730000010.050000) can1 120#DC051A047D000000
(1730000010.050000) can1 200#796E850100000000
(1730000010.050000) can1 220#A330005E05501A00
(1730000010.100000) can1 0A0#882C728001000000
(1730000010.100000) can1 0C0#5E01250000000000
(1730000010.100000) can1 120#DC0520047D000000
(1730000010.100000) can1 200#796E850100000000
(1730000010.100000) can1 220#A330005E05501A00
(1730000010.150000) can1 0A0#882C728001000000
(1730000010.150000) can1 0C0#5E01250000000000
(1730000010.150000) can1 120#DC0525047D000000
(1730000010.150000) can1 200#796E850100000000
(1730000010.150000) can1 220#A330005E05501A00
(1730000010.200000) can1 0A0#882C728001000000
(1730000010.200000) can1 0C0#5E01250000000000
(1730000010.200000) can1 120#DC052A047D000000
(1730000010.200000) can1 200#796E850100000000
(1730000010.200000) can1 220#A330005E05501A00
(1730000010.250000) can1 0A0#882C728001000000
(1730000010.250000) can1 0C0#5E01250000000000
(1730000010.250000) can1 120#DC052F047D000000
(1730000010.250000) can1 200#796E850100000000
(1730000010.250000) can1 220#A330005E05501A00
(1730000010.300000) can1 0A0#882C728101000000
(1730000010.300000) can1 0C0#5E01250000000000
(1730000010.300000) can1 120#DC0534047D000000
(1730000010.300000) can1 200#796E850100000000
(1730000010.300000) can1 220#A330005E05501A00
(1730000010.350000) can1 0A0#882C738101000000
(1730000010.350000) can1 0C0#5E01250000000000
(1730000010.350000) can1 120#DC0538047D000000
(1730000010.350000) can1 200#796E850100000000
(1730000010.350000) can1 220#A330005E05501A00
(1730000010.400000) can1 0A0#882C738101000000
(1730000010.400000) can1 0C0#5E01250000000000
(1730000010.400000) can1 120#DC053D047D000000
(1730000010.400000) can1 200#796E850100000000
(1730000010.400000) can1 220#A330005E05501A00
(1730000010.450000) can1 0A0#882C738101000000
(1730000010.450000) can1 0C0#5E01250000000000
(1730000010.450000) can1 120#DC0541047D000000
(1730000010.450000) can1 200#796E850100000000
(1730000010.450000) can1 220#A330005E05501A00
(1730000010.500000) can1 0A0#882C738101000000
(1730000010.500000) can1 0C0#5E01250000000000
(1730000010.500000) can1 120#DC0545047D000000
(1730000010.500000) can1 200#796E850100000000
(1730000010.500000) can1 220#A330005E05501A00
(1730000010.550000) can1 0A0#882C738101000000
(1730000010.550000) can1 0C0#5E01250000000000
(1730000010.550000) can1 120#DC0548047D000000
(1730000010.550000) can1 200#796E850100000000
(1730000010.550000) can1 220#A330005E05501A00
(1730000010.600000) can1 0A0#882C738201000000
(1730000010.600000) can1 0C0#5E01250000000000
(1730000010.600000) can1 120#DC054C047D000000
(1730000010.600000) can1 200#796E850100000000
(1730000010.600000) can1 220#A330005E05501A00
(1730000010.650000) can1 0A0#882C748201000000
(1730000010.650000) can1 0C0#5E01250000000000
(1730000010.650000) can1 120#DC054F047D000000
(1730000010.650000) can1 200#796E850100000000
(1730000010.650000) can1 220#A330005E05501A00
(1730000010.700000) can1 0A0#882C748201000000
(1730000010.700000) can1 0C0#5E01250000000000
(1730000010.700000) can1 120#DC0552047D000000
(1730000010.700000) can1 200#796E850100000000
(1730000010.700000) can1 220#A330005E05501A00
(1730000010.750000) can1 0A0#882C748201000000
(1730000010.750000) can1 0C0#5E01250000000000
(1730000010.750000) can1 120#DC0554047D000000
(1730000010.750000) can1 200#796E850100000000
(1730000010.750000) can1 220#A330005E05501A00
(1730000010.800000) can1 0A0#882C748201000000
(1730000010.800000) can1 0C0#5E01250000000000
(1730000010.800000) can1 120#DC0557047D000000
(1730000010.800000) can1 200#796E850100000000
(1730000010.800000) can1 220#A330005E05501A00
(1730000010.850000) can1 0A0#882C748301000000
(1730000010.850000) can1 0C0#5E01250000000000
(1730000010.850000) can1 120#DC0559047D000000
(1730000010.850000) can1 200#796E850100000000
(1730000010.850000) can1 220#A330005E05501A00
(1730000010.900000) can1 0A0#882C748301000000
(1730000010.900000) can1 0C0#5E01250000000000
(1730000010.900000) can1 120#DC055B047D000000
(1730000010.900000) can1 200#796E850100000000
(1730000010.900000) can1 220#A330005E05501A00
(1730000010.950000) can1 0A0#882C758301000000
(1730000010.950000) can1 0C0#5E01250000000000
(1730000010.950000) can1 120#DC055C047D000000
(1730000010.950000) can1 200#796E850100000000
(1730000010.950000) can1 220#A330005E05501A00
(1730000011.000000) can1 0A0#882C758301000000
(1730000011.000000) can1 0C0#3200250000000000
(1730000011.000000) can1 120#DC055D4479000000
(1730000011.000000) can1 200#796E850100000000
(1730000011.000000) can1 220#A330005E05501A00
(1730000011.050000) can1 0A0#882C758301000000
(1730000011.050000) can1 0C0#3200250000000000
(1730000011.050000) can1 120#C3055E4479000000
(1730000011.050000) can1 200#796E850100000000
(1730000011.050000) can1 220#A330005E05501A00
(1730000011.100000) can1 0A0#882C758301000000
(1730000011.100000) can1 0C0#3200250000000000
(1730000011.100000) can1 120#AA055F4479000000
(1730000011.100000) can1 200#796E850100000000
(1730000011.100000) can1 220#A330005E05501A00
(1730000011.150000) can1 0A0#882C758401000000
(1730000011.150000) can1 0C0#3200250000000000
(1730000011.150000) can1 120#9105604479000000
(1730000011.150000) can1 200#796E850100000000
(1730000011.150000) can1 220#A330005E05501A00
(1730000011.200000) can1 0A0#882C758401000000
(1730000011.200000) can1 0C0#3200250000000000
(1730000011.200000) can1 120#7805604479000000
(1730000011.200000) can1 200#796E850100000000
(1730000011.200000) can1 220#A330005E05501A00
(1730000011.250000) can1 0A0#882C768401000000
(1730000011.250000) can1 0C0#3200250000000000
(1730000011.250000) can1 120#5F05604479000000
(1730000011.250000) can1 200#796E850100000000
(1730000011.250000) can1 220#A330005E05501A00
(1730000011.300000) can1 0A0#102C768401000000
(1730000011.300000) can1 0C0#3200250000000000
(1730000011.300000) can1 120#4605604479000000
(1730000011.300000) can1 200#796E850100000000
(1730000011.300000) can1 220#A330005E05501A00
(1730000011.350000) can1 0A0#4D2B768400000000
(1730000011.350000) can1 0C0#3200250000000000
(1730000011.350000) can1 120#2D055F4479000000
(1730000011.350000) can1 200#796E850100000000
(1730000011.350000) can1 220#A330005E05501A00
(1730000011.400000) can1 0A0#8A2A768500000000
(1730000011.400000) can1 0C0#3200250000000000
(1730000011.400000) can1 120#14055E4479000000
(1730000011.400000) can1 200#796E850100000000
(1730000011.400000) can1 220#A330005E05501A00
(1730000011.450000) can1 0A0#252B768500000000
(1730000011.450000) can1 0C0#3200240000000000
(1730000011.450000) can1 120#FB045D4479000000
(1730000011.450000) can1 200#796E850100000000
(1730000011.450000) can1 220#A330005E05501A00
(1730000011.500000) can1 0A0#622A768500000000
(1730000011.500000) can1 0C0#3200240000000000
(1730000011.500000) can1 120#E2045C4479000000
(1730000011.500000) can1 200#796E850900000000
(1730000011.500000) can1 220#A330005E05501A00
(1730000011.550000) can1 0A0#9F29768500000000
(1730000011.550000) can1 0C0#3200240000000000
(1730000011.550000) can1 120#C9045A4479000000
(1730000011.550000) can1 200#796E850900000000
(1730000011.550000) can1 220#A330005E05501A00
(1730000011.600000) can1 0A0#DC28778500000000
(1730000011.600000) can1 0C0#3200240000000000
(1730000011.600000) can1 120#B004584479000000
(1730000011.600000) can1 200#796E850900000000
(1730000011.600000) can1 220#A330005E05501A00
(1730000011.650000) can1 0A0#1928778500000000
(1730000011.650000) can1 0C0#3200240000000000
(1730000011.650000) can1 120#9704564479000000
(1730000011.650000) can1 200#796E850900000000
(1730000011.650000) can1 220#A330005E05501A00
(1730000011.700000) can1 0A0#5627778600000000
(1730000011.700000) can1 0C0#3200240000000000
(1730000011.700000) can1 120#7E04544479000000
(1730000011.700000) can1 200#786E850900000000
(1730000011.700000) can1 220#A330005E05501A00
(1730000011.750000) can1 0A0#9326778600000000
(1730000011.750000) can1 0C0#3200240000000000
(1730000011.750000) can1 120#6504514479000000
(1730000011.750000) can1 200#786E850900000000
(1730000011.750000) can1 220#A330005E05501A00
(1730000011.800000) can1 0A0#D025778600000000
(1730000011.800000) can1 0C0#3200240000000000
(1730000011.800000) can1 120#4C044E4479000000
(1730000011.800000) can1 200#786E850900000000
(1730000011.800000) can1 220#A330005E05501A00
(1730000011.850000) can1 0A0#0D25778600000000
(1730000011.850000) can1 0C0#3200240000000000
(1730000011.850000) can1 120#33044B4479000000
(1730000011.850000) can1 200#786E850900000000
(1730000011.850000) can1 220#A330005E05501A00
(1730000011.900000) can1 0A0#4A24788600000000
(1730000011.900000) can1 0C0#3200240000000000
(1730000011.900000) can1 120#1A04484479000000
(1730000011.900000) can1 200#786E850900000000
(1730000011.900000) can1 220#A330005E05501A00
(1730000011.950000) can1 0A0#8723788700000000
(1730000011.950000) can1 0C0#3200240000000000
(1730000011.950000) can1 120#0104444479000000
(1730000011.950000) can1 200#786E850900000000
(1730000011.950000) can1 220#A330005E05501A00
(1730000012.000000) can1 0A0#C422788700000000
(1730000012.000000) can1 0C0#3200240000000000
(1730000012.000000) can1 120#E803404479000000
(1730000012.000000) can1 200#786E850900000000
(1730000012.000000) can1 220#A330005E05501A00
(1730000012.050000) can1 0A0#5F23788700000000
(1730000012.050000) can1 0C0#3200230000000000
(1730000012.050000) can1 120#CF033C4479000000
(1730000012.050000) can1 200#786E850900000000
(1730000012.050000) can1 220#A330005E05501A00
(1730000012.100000) can1 0A0#9C22788700000000
(1730000012.100000) can1 0C0#3200230000000000
(1730000012.100000) can1 120#B603384479000000
(1730000012.100000) can1 200#786E850900000000
(1730000012.100000) can1 220#A330005E05501A00
(1730000012.150000) can1 0A0#D921788700000000
(1730000012.150000) can1 0C0#3200230000000000
(1730000012.150000) can1 120#9D03334479000000
(1730000012.150000) can1 200#786E850900000000
(1730000012.150000) can1 220#A330005E05501A00
(1730000012.200000) can1 0A0#1621798700000000
(1730000012.200000) can1 0C0#3200230000000000
(1730000012.200000) can1 120#84032E4479000000
(1730000012.200000) can1 200#786E850100000000
(1730000012.200000) can1 220#A330005E05501A00
(1730000012.250000) can1 0A0#5320798800000000
(1730000012.250000) can1 0C0#3200230000000000
(1730000012.250000) can1 120#6B03294479000000
(1730000012.250000) can1 200#786E850100000000
(1730000012.250000) can1 220#A330005E05501A00
(1730000012.300000) can1 0A0#901F798800000000
(1730000012.300000) can1 0C0#3200230000000000
(1730000012.300000) can1 120#5203244479000000
(1730000012.300000) can1 200#786E850100000000
(1730000012.300000) can1 220#A330005E05501A00
(1730000012.350000) can1 0A0#CD1E798800000000
(1730000012.350000) can1 0C0#3200230000000000
(1730000012.350000) can1 120#39031F4479000000
(1730000012.350000) can1 200#786E850100000000
(1730000012.350000) can1 220#A330005E05501A00
(1730000012.400000) can1 0A0#0A1E798800000000
(1730000012.400000) can1 0C0#3200230000000000
(1730000012.400000) can1 120#2003194479000000
(1730000012.400000) can1 200#786E850100000000
(1730000012.400000) can1 220#A330005E05501A00
(1730000012.450000) can1 0A0#471D798800000000
(1730000012.450000) can1 0C0#3200230000000000
(1730000012.450000) can1 120#0703134479000000
(1730000012.450000) can1 200#786E850100000000
(1730000012.450000) can1 220#A330005E05501A00
(1730000012.500000) can1 0A0#841C7A8900000000
(1730000012.500000) can1 0C0#3200230000000000
(1730000012.500000) can1 120#EE020D4479000000
(1730000012.500000) can1 200#786E850100000000
(1730000012.500000) can1 220#A330005E05501A00
(1730000012.550000) can1 0A0#C11B7A8900000000
(1730000012.550000) can1 0C0#3200230000000000
(1730000012.550000) can1 120#D502074479000000
(1730000012.550000) can1 200#786E850100000000
(1730000012.550000) can1 220#A330005E05501A00
(1730000012.600000) can1 0A0#FE1A7A8900000000
(1730000012.600000) can1 0C0#3200230000000000
(1730000012.600000) can1 120#BC02014479000000
(1730000012.600000) can1 200#786E850100000000
(1730000012.600000) can1 220#A330005E05501A00
(1730000012.650000) can1 0A0#991B7A8900000000
(1730000012.650000) can1 0C0#3200220000000000
(1730000012.650000) can1 120#A302FB4379000000
(1730000012.650000) can1 200#786E850100000000
(1730000012.650000) can1 220#A330005E05501A00
(1730000012.700000) can1 0A0#D61A7A8900000000
(1730000012.700000) can1 0C0#3200220000000000
(1730000012.700000) can1 120#8A02F44379000000
(1730000012.700000) can1 200#786E850100000000
(1730000012.700000) can1 220#A330005E05501A00
(1730000012.750000) can1 0A0#131A7A8900000000
(1730000012.750000) can1 0C0#3200220000000000
(1730000012.750000) can1 120#7102ED4379000000
(1730000012.750000) can1 200#786E850100000000
(1730000012.750000) can1 220#A330005E05501A00
(1730000012.800000) can1 0A0#50197A8A00000000
(1730000012.800000) can1 0C0#3200220000000000
(1730000012.800000) can1 120#5802E74379000000
(1730000012.800000) can1 200#786E850100000000
(1730000012.800000) can1 220#A230005E05501A00
(1730000012.850000) can1 0A0#8D187B8A00000000
(1730000012.850000) can1 0C0#3200220000000000
(1730000012.850000) can1 120#3F02E04379000000
(1730000012.850000) can1 200#786E850100000000
(1730000012.850000) can1 220#A230005E05501A00
(1730000012.900000) can1 0A0#CA177B8A00000000
(1730000012.900000) can1 0C0#3200220000000000
(1730000012.900000) can1 120#2602D94379000000
(1730000012.900000) can1 200#786E850100000000
(1730000012.900000) can1 220#A230005E05501A00
(1730000012.950000) can1 0A0#07177B8A00000000
(1730000012.950000) can1 0C0#3200220000000000
(1730000012.950000) can1 120#0D02D14379000000
(1730000012.950000) can1 200#786E850100000000
(1730000012.950000) can1 220#A230005E05501A00
(1730000013.000000) can1 0A0#44167B8A00000000
(1730000013.000000) can1 0C0#3200220000000000
(1730000013.000000) can1 120#F401CA4379000000
(1730000013.000000) can1 200#786E850100000000
(1730000013.000000) can1 220#A230005E05501A00
(1730000013.050000) can1 0A0#81157B8A00000000
(1730000013.050000) can1 0C0#3200220000000000
(1730000013.050000) can1 120#DB01C34379000000
(1730000013.050000) can1 200#786E850100000000
(1730000013.050000) can1 220#A230005E05501A00
(1730000013.100000) can1 0A0#BE147B8B00000000
(1730000013.100000) can1 0C0#3200220000000000
(1730000013.100000) can1 120#C201BB4379000000
(1730000013.100000) can1 200#786E850100000000
(1730000013.100000) can1 220#A230005E05501A00
(1730000013.150000) can1 0A0#FB137C8B00000000
(1730000013.150000) can1 0C0#3200220000000000
(1730000013.150000) can1 120#A901B44379000000
(1730000013.150000) can1 200#786E850100000000
(1730000013.150000) can1 220#A230005E05501A00
(1730000013.200000) can1 0A0#38137C8B00000000
(1730000013.200000) can1 0C0#3200220000000000
(1730000013.200000) can1 120#9001AC4379000000
(1730000013.200000) can1 200#786E850100000000
(1730000013.200000) can1 220#A230005E05501A00
(1730000013.250000) can1 0A0#D3137C8B00000000
(1730000013.250000) can1 0C0#3200210000000000
(1730000013.250000) can1 120#7701A54379000000
(1730000013.250000) can1 200#786E850100000000
(1730000013.250000) can1 220#A230005E05501A00
(1730000013.300000) can1 0A0#10137C8B00000000
(1730000013.300000) can1 0C0#3200210000000000
(1730000013.300000) can1 120#5E019D4379000000
(1730000013.300000) can1 200#786E850100000000
(1730000013.300000) can1 220#A230005E05501A00
(1730000013.350000) can1 0A0#4D127C8C00000000
(1730000013.350000) can1 0C0#3200210000000000
(1730000013.350000) can1 120#4501964379000000
(1730000013.350000) can1 200#786E850100000000
(1730000013.350000) can1 220#A230005E05501A00
(1730000013.400000) can1 0A0#8A117C8C00000000
(1730000013.400000) can1 0C0#3200210000000000
(1730000013.400000) can1 120#2C018E4379000000
(1730000013.400000) can1 200#786E850100000000
(1730000013.400000) can1 220#A230005E05501A00
(1730000013.450000) can1 0A0#C7107D8C00000000
(1730000013.450000) can1 0C0#3200210000000000
(1730000013.450000) can1 120#1301864379000000
(1730000013.450000) can1 200#786E850100000000
(1730000013.450000) can1 220#A230005E05501A00
(1730000013.500000) can1 0A0#04107D8C00000000
(1730000013.500000) can1 0C0#3200210000000000
(1730000013.500000) can1 120#FA007E4379000000
(1730000013.500000) can1 200#786E850100000000
(1730000013.500000) can1 220#A230005E05501A00
(1730000013.550000) can1 0A0#410F7D8C00000000
(1730000013.550000) can1 0C0#3200210000000000
(1730000013.550000) can1 120#E100774379000000
(1730000013.550000) can1 200#786E850100000000
(1730000013.550000) can1 220#A230005E05501A00
(1730000013.600000) can1 0A0#7E0E7D8C00000000
(1730000013.600000) can1 0C0#3200210000000000
(1730000013.600000) can1 120#C8006F4379000000
(1730000013.600000) can1 200#786E850100000000
(1730000013.600000) can1 220#A230005E05501A00
(1730000013.650000) can1 0A0#BB0D7D8D00000000
(1730000013.650000) can1 0C0#3200210000000000
(1730000013.650000) can1 120#AF00674379000000
(1730000013.650000) can1 200#786E850100000000
(1730000013.650000) can1 220#A230005E05501A00
(1730000013.700000) can1 0A0#F80C7D8D00000000
(1730000013.700000) can1 0C0#3200210000000000
(1730000013.700000) can1 120#9600604379000000
(1730000013.700000) can1 200#786E850100000000
(1730000013.700000) can1 220#A230005E05501A00
(1730000013.750000) can1 0A0#350C7E8D00000000
(1730000013.750000) can1 0C0#3200210000000000
(1730000013.750000) can1 120#7D00584379000000
(1730000013.750000) can1 200#786E850100000000
(1730000013.750000) can1 220#A230005E05501A00
(1730000013.800000) can1 0A0#720B7E8D00000000
(1730000013.800000) can1 0C0#3200210000000000
(1730000013.800000) can1 120#6400514379000000
(1730000013.800000) can1 200#786E850100000000
(1730000013.800000) can1 220#A230005E05501A00
(1730000013.850000) can1 0A0#AF0A7E8D00000000
(1730000013.850000) can1 0C0#3200210000000000
(1730000013.850000) can1 120#4B00494379000000
(1730000013.850000) can1 200#786E850100000000
(1730000013.850000) can1 220#A230005E05501A00
(1730000013.900000) can1 0A0#EC097E8E00000000
(1730000013.900000) can1 0C0#3200210000000000
(1730000013.900000) can1 120#3200424379000000
(1730000013.900000) can1 200#786E850100000000
(1730000013.900000) can1 220#A230005E05501A00
(1730000013.950000) can1 0A0#29097E8E00000000
(1730000013.950000) can1 0C0#3200210000000000
(1730000013.950000) can1 120#19003B4379000000
(1730000013.950000) can1 200#786E850100000000
(1730000013.950000) can1 220#A230005E05501A00
(1730000014.000000) can1 0A0#B0047E8E00000000
(1730000014.000000) can1 0C0#0000200100000000
(1730000014.000000) can1 120#000084037D000000
(1730000014.000000) can1 200#781E950000000000
(1730000014.000000) can1 220#A230005E05501A00
(1730000014.050000) can1 0A0#B0047E8E00000000
(1730000014.050000) can1 0C0#0000200100000000
(1730000014.050000) can1 120#000084037D000000
(1730000014.050000) can1 200#781E950000000000
(1730000014.050000) can1 220#A230005E05501A00
(1730000014.100000) can1 0A0#B0047F8E00000000
(1730000014.100000) can1 0C0#0000200100000000
(1730000014.100000) can1 120#000084037D000000
(1730000014.100000) can1 200#781E950000000000
(1730000014.100000) can1 220#A230005E05501A00
(1730000014.150000) can1 0A0#B0047F8E00000000
(1730000014.150000) can1 0C0#0000200100000000
(1730000014.150000) can1 120#000084037D000000
(1730000014.150000) can1 200#781E950000000000
(1730000014.150000) can1 220#A230005E05501A00
(1730000014.200000) can1 0A0#B0047F8F00000000
(1730000014.200000) can1 0C0#0000200100000000
(1730000014.200000) can1 120#000084037D000000
(1730000014.200000) can1 200#781E950000000000
(1730000014.200000) can1 220#A230005E05501A00
(1730000014.250000) can1 0A0#B0047F8F00000000
(1730000014.250000) can1 0C0#0000200100000000
(1730000014.250000) can1 120#000084037D000000
(1730000014.250000) can1 200#781E950000000000
(1730000014.250000) can1 220#A230005E05501A00
(1730000014.300000) can1 0A0#B0047F8F00000000
(1730000014.300000) can1 0C0#0000200100000000
(1730000014.300000) can1 120#000084037D000000
(1730000014.300000) can1 200#781E950000000000
(1730000014.300000) can1 220#A230005E05501A00
(1730000014.350000) can1 0A0#B0047F8F00000000
(1730000014.350000) can1 0C0#0000200100000000
(1730000014.350000) can1 120#000084037D000000
(1730000014.350000) can1 200#781E950000000000
(1730000014.350000) can1 220#A230005E05501A00
(1730000014.400000) can1 0A0#B004808F00000000
(1730000014.400000) can1 0C0#0000200100000000
(1730000014.400000) can1 120#000084037D000000
(1730000014.400000) can1 200#781E950000000000
(1730000014.400000) can1 220#A230005E05501A00
(1730000014.450000) can1 0A0#B004809000000000
(1730000014.450000) can1 0C0#0000200100000000
(1730000014.450000) can1 120#000084037D000000
(1730000014.450000) can1 200#781E950000000000
(1730000014.450000) can1 220#A230005E05501A00
(1730000014.500000) can1 0A0#B004809000000000
(1730000014.500000) can1 0C0#0000200100000000
(1730000014.500000) can1 120#000084037D000000
(1730000014.500000) can1 200#781E950000000000
(1730000014.500000) can1 220#A230005E05501A00
(1730000014.550000) can1 0A0#B004809000000000
(1730000014.550000) can1 0C0#0000200100000000
(1730000014.550000) can1 120#000084037D000000
(1730000014.550000) can1 200#781E950000000000
(1730000014.550000) can1 220#A230005E05501A00
(1730000014.600000) can1 0A0#B004809000000000
(1730000014.600000) can1 0C0#0000200100000000
(1730000014.600000) can1 120#000084037D000000
(1730000014.600000) can1 200#781E950000000000
(1730000014.600000) can1 220#A230005E05501A00
(1730000014.650000) can1 0A0#B004809000000000
(1730000014.650000) can1 0C0#0000200100000000
(1730000014.650000) can1 120#000084037D000000
(1730000014.650000) can1 200#781E950000000000
(1730000014.650000) can1 220#A230005E05501A00
(1730000014.700000) can1 0A0#B004819000000000
(1730000014.700000) can1 0C0#0000200100000000
(1730000014.700000) can1 120#000084037D000000
(1730000014.700000) can1 200#781E950000000000
(1730000014.700000) can1 220#A230005E05501A00
(1730000014.750000) can1 0A0#B004819100000000
(1730000014.750000) can1 0C0#0000200100000000
(1730000014.750000) can1 120#000084037D000000
(1730000014.750000) can1 200#781E950000000000
(1730000014.750000) can1 220#A230005E05501A00
(1730000014.800000) can1 0A0#B004819100000000
(1730000014.800000) can1 0C0#0000200100000000
(1730000014.800000) can1 120#000084037D000000
(1730000014.800000) can1 200#781E950000000000
(1730000014.800000) can1 220#A230005E05501A00
(1730000014.850000) can1 0A0#B004819100000000
(1730000014.850000) can1 0C0#0000200100000000
(1730000014.850000) can1 120#000084037D000000
(1730000014.850000) can1 200#781E950000000000
(1730000014.850000) can1 220#A230005E05501A00
(1730000014.900000) can1 0A0#B004819100000000
(1730000014.900000) can1 0C0#0000200100000000
(1730000014.900000) can1 120#000084037D000000
(1730000014.900000) can1 200#781E950000000000
(1730000014.900000) can1 220#A230005E05501A00
(1730000014.950000) can1 0A0#B004819100000000
(1730000014.950000) can1 0C0#0000200100000000
(1730000014.950000) can1 120#000084037D000000
(1730000014.950000) can1 200#781E950000000000
(1730000014.950000) can1 220#A230005E05501A00
